Circuit: * C:\Users\Lucas\Documents\Actualmente Usando\Electrónica III\tp2-grupo-1\EJ1\Simulacion\cmos.asc

Direct Newton iteration for .op point succeeded.
Semiconductor Device Operating Points:
                        --- VDMOSFET Transistors ---
Name:          m2          m1
Model:       irf9640     irfz44n
Id:          1.37e-10    2.05e-09
Vgs:         0.00e+00    5.00e+00
Vds:        -5.00e+00    2.77e-12
Vth:        -3.50e+00    4.00e+00
Gm:          3.53e-31    4.80e-11
Gds:         1.77e-34    1.90e+01
Cgs:         1.00e-09    1.40e-09
Cgd:         1.80e-10    2.00e-09
Cbody:       4.08e-10    9.00e-10



Date: Mon Sep 23 15:08:11 2019
Total elapsed time: 0.062 seconds.

tnom = 27
temp = 27
method = trap
totiter = 8
traniter = 0
tranpoints = 0
accept = 0
rejected = 0
matrix size = 12
fillins = 0
solver = Normal
Matrix Compiler1: 562 bytes object code size
Matrix Compiler2: 920 bytes object code size
