Circuit: * C:\Users\Lucas\Documents\Actualmente Usando\Electrónica III\tp2-grupo-1\EJ1\Simulacion\tod.asc

Direct Newton iteration for .op point succeeded.
Semiconductor Device Operating Points:
                        --- Bipolar Transistors ---
Name:       q3          q2          q1
Model:    bc547c      bc547c      bc547c
Ib:       9.35e-06    7.43e-05    8.12e-06
Ic:       4.95e-04    4.99e-04   -7.43e-05
Vbe:      6.07e-01    6.27e-01   -3.82e+00
Vbc:      5.55e-01    6.14e-01    5.55e-01
Vce:      5.24e-02    1.24e-02   -4.37e+00
BetaDC:   5.29e+01    6.71e+00   -9.15e+00
Gm:       1.92e-02    2.17e-02   -2.51e-03
Rpi:      2.07e+04    9.82e+03    1.00e+12
Rx:       1.00e+00    1.00e+00    1.00e+00
Ro:       4.04e+02    4.28e+01    3.99e+02
Cbe:      4.12e-11    5.33e-11    6.12e-12
Cbc:      1.56e-11    1.73e-11    1.56e-11
Cjs:      0.00e+00    0.00e+00    0.00e+00
BetaAC:   3.96e+02    2.13e+02   -2.51e+09
Cbx:      9.61e-12    1.07e-11    9.62e-12
Ft:       4.59e+07    4.25e+07    1.27e+07

                        --- VDMOSFET Transistors ---
Name:          m3          m2          m1
Model:       irf9640     irfz44n     irfz44n
Id:          1.37e-10    2.05e-09    5.00e-04
Vgs:         0.00e+00    5.00e+00    5.00e+00
Vds:        -5.00e+00    2.77e-12    2.88e-05
Vth:        -3.50e+00    4.00e+00    4.00e+00
Gm:          3.53e-31    4.80e-11    5.00e-04
Gds:         1.77e-34    1.90e+01    1.90e+01
Cgs:         1.00e-09    1.40e-09    1.40e-09
Cgd:         1.80e-10    2.00e-09    2.00e-09
Cbody:       4.08e-10    9.00e-10    9.00e-10



Date: Sun Sep 22 16:36:23 2019
Total elapsed time: 0.073 seconds.

tnom = 27
temp = 27
method = trap
totiter = 18
traniter = 0
tranpoints = 0
accept = 0
rejected = 0
matrix size = 42
fillins = 0
solver = Normal
Matrix Compiler1: 2.08 KB object code size
Matrix Compiler2: 3.09 KB object code size
